***BUSMASTER Ver 2.6.2***
***PROTOCOL CAN***
***NOTE: PLEASE DO NOT EDIT THIS DOCUMENT***
***[START LOGGING SESSION]***
***START DATE AND TIME 26:10:2018 13:51:29:567***
***HEX***
***SYSTEM MODE***
***START CHANNEL BAUD RATE***
"***CHANNEL 1 - Kvaser - Kvaser Leaf Light v2 #0 (Channel 0), Serial Number- 0, Firmware- 0x00000301 0x00030003 - 500000 bps***"
***END CHANNEL BAUD RATE***
***START DATABASE FILES (DBF/DBC)***
***END OF DATABASE FILES (DBF/DBC)***
***<Time><Tx/Rx><Channel><CAN ID><Type><DLC><DataBytes>***
13:51:29:5630 Rx 1 0x2001 x 8 00 00 00 00 00 00 0F ED 
13:51:29:5630 Rx 1 0x2001 x 8 00 00 00 00 00 00 0F ED 
13:51:29:5630 Rx 1 0x2001 x 8 00 00 00 00 00 00 0F ED 
13:51:29:5630 Rx 1 0x2001 x 8 00 00 00 00 00 00 0F ED 
13:51:29:5680 Rx 1 0x2001 x 8 00 00 00 00 00 00 0F ED 
13:51:29:5680 Rx 1 0x2001 x 8 00 00 00 00 00 00 0F ED 
13:51:29:5750 Rx 1 0x2001 x 8 00 00 00 00 00 00 0F ED 
13:51:29:5820 Rx 1 0x2001 x 8 00 00 00 00 00 00 0F ED 
13:51:29:5830 Rx 1 0x2001 x 8 00 00 00 00 00 00 0F ED 
13:51:29:5830 Rx 1 0x2001 x 8 00 00 00 00 00 00 0F ED 
13:51:29:5880 Rx 1 0x2001 x 8 00 00 00 00 00 00 0F ED 
13:51:29:5880 Rx 1 0x2001 x 8 00 00 00 00 00 00 0F ED 
13:51:29:6030 Rx 1 0x2001 x 8 00 00 00 00 00 00 0F ED 
13:51:29:6030 Rx 1 0x2001 x 8 00 00 00 00 00 00 0F ED 
13:51:29:6030 Rx 1 0x2001 x 8 00 00 00 00 00 00 0F ED 
13:51:29:6030 Rx 1 0x2001 x 8 00 00 00 00 00 00 0F ED 
13:51:29:6030 Rx 1 0x2001 x 8 00 00 00 00 00 00 0F ED 
13:51:29:6030 Rx 1 0x2001 x 8 00 00 00 00 00 00 0F ED 
13:51:29:6080 Rx 1 0x2001 x 8 00 00 00 00 00 00 0F ED 
13:51:29:6080 Rx 1 0x2001 x 8 00 00 00 00 00 00 0F ED 
13:51:29:6230 Rx 1 0x2001 x 8 00 00 00 00 00 00 0F ED 
13:51:29:6230 Rx 1 0x2001 x 8 00 00 00 00 00 00 0F ED 
13:51:29:6230 Rx 1 0x2001 x 8 00 00 00 00 00 00 0F ED 
13:51:29:6230 Rx 1 0x2001 x 8 00 00 00 00 00 00 0F ED 
13:51:29:6270 Rx 1 0x2001 x 8 00 00 00 00 00 00 0F ED 
13:51:29:6280 Rx 1 0x2001 x 8 00 00 00 00 00 00 0F ED 
13:51:29:6280 Rx 1 0x2001 x 8 00 00 00 00 00 00 0F ED 
13:51:29:6280 Rx 1 0x2001 x 8 00 00 00 00 00 00 0F ED 
13:51:29:6380 Rx 1 0x2001 x 8 00 00 00 00 00 00 0F ED 
13:51:29:6420 Rx 1 0x2001 x 8 00 00 00 00 00 00 0F ED 
13:51:29:6430 Rx 1 0x2001 x 8 00 00 00 00 00 00 0F ED 
13:51:29:6430 Rx 1 0x2001 x 8 00 00 00 00 00 00 0F ED 
13:51:29:6430 Rx 1 0x2001 x 8 00 00 00 00 00 00 0F ED 
13:51:29:6480 Rx 1 0x2001 x 8 00 00 00 00 00 00 0F ED 
13:51:29:6480 Rx 1 0x2001 x 8 00 00 00 00 00 00 0F ED 
13:51:29:6630 Rx 1 0x2001 x 8 00 00 00 00 00 00 0F ED 
13:51:29:6630 Rx 1 0x2001 x 8 00 00 00 00 00 00 0F ED 
13:51:29:6630 Rx 1 0x2001 x 8 00 00 00 00 00 00 0F ED 
13:51:29:6680 Rx 1 0x2001 x 8 00 00 00 00 00 00 0F ED 
13:51:29:6680 Rx 1 0x2001 x 8 00 00 00 00 00 00 0F ED 
13:51:29:6710 Rx 1 0x2001 x 8 00 00 00 00 00 00 0F ED 
13:51:29:6830 Rx 1 0x2001 x 8 00 00 00 00 00 00 0F ED 
13:51:29:6830 Rx 1 0x2001 x 8 00 00 00 00 00 00 0F ED 
13:51:29:6830 Rx 1 0x2001 x 8 00 00 00 00 00 00 0F ED 
13:51:29:6880 Rx 1 0x2001 x 8 00 00 00 00 00 00 0F ED 
13:51:29:7030 Rx 1 0x2001 x 8 00 00 00 00 00 00 0F ED 
13:51:29:7030 Rx 1 0x2001 x 8 00 00 00 00 00 00 0F ED 
13:51:29:7030 Rx 1 0x2001 x 8 00 00 00 00 00 00 0F ED 
13:51:29:7030 Rx 1 0x2001 x 8 00 00 00 00 00 00 0F ED 
13:51:29:7030 Rx 1 0x2001 x 8 00 00 00 00 00 00 0F ED 
13:51:29:7080 Rx 1 0x2001 x 8 00 00 00 00 00 00 0F ED 
13:51:29:7080 Rx 1 0x2001 x 8 00 00 00 00 00 00 0F ED 
13:51:29:7190 Rx 1 0x2001 x 8 00 00 00 00 00 00 0F ED 
13:51:29:7230 Rx 1 0x2001 x 8 00 00 00 00 00 00 0F ED 
13:51:29:7230 Rx 1 0x2001 x 8 00 00 00 00 00 00 0F ED 
13:51:29:7230 Rx 1 0x2001 x 8 00 00 00 00 00 00 0F ED 
13:51:29:7230 Rx 1 0x2001 x 8 00 00 00 00 00 00 0F ED 
13:51:29:7280 Rx 1 0x2001 x 8 00 00 00 00 00 00 0F ED 
13:51:29:7280 Rx 1 0x2001 x 8 00 00 00 00 00 00 0F ED 
13:51:29:7380 Rx 1 0x2001 x 8 00 00 00 00 00 00 0F ED 
13:51:29:7380 Rx 1 0x2001 x 8 00 00 00 00 00 00 0F ED 
13:51:29:7380 Rx 1 0x2001 x 8 00 00 00 00 00 00 0F ED 
13:51:29:7390 Rx 1 0x2001 x 8 00 00 00 00 00 00 0F ED 
13:51:29:7390 Rx 1 0x2001 x 8 00 00 00 00 00 00 0F ED 
13:51:29:7390 Rx 1 0x2001 x 8 00 00 00 00 00 00 0F ED 
13:51:29:7420 Rx 1 0x2001 x 8 00 00 00 00 00 00 0F ED 
13:51:29:7430 Rx 1 0x2001 x 8 00 00 00 00 00 00 0F ED 
13:51:29:7430 Rx 1 0x2001 x 8 00 00 00 00 00 00 0F ED 
13:51:29:7430 Rx 1 0x2001 x 8 00 00 00 00 00 00 0F ED 
13:51:29:7480 Rx 1 0x2001 x 8 00 00 00 00 00 00 0F ED 
13:51:29:7620 Rx 1 0x2001 x 8 00 00 00 00 00 00 0F ED 
13:51:29:7620 Rx 1 0x2001 x 8 00 00 00 00 00 00 0F ED 
13:51:29:7630 Rx 1 0x2001 x 8 00 00 00 00 00 00 0F ED 
13:51:29:7680 Rx 1 0x2001 x 8 00 00 00 00 00 00 0F ED 
13:51:29:7680 Rx 1 0x2001 x 8 00 00 00 00 00 00 0F ED 
13:51:29:7680 Rx 1 0x480 s 8 00 00 00 40 7A 00 0F 36 
13:51:29:7830 Rx 1 0x2001 x 8 00 00 00 00 7A 00 0F 36 
13:51:29:7830 Rx 1 0x2001 x 8 00 00 00 00 7A 00 0F 36 
13:51:29:7830 Rx 1 0x2001 x 8 00 00 00 00 7A 00 0F 36 
13:51:29:7830 Rx 1 0x2001 x 8 00 00 00 00 7A 00 0F 36 
13:51:29:7880 Rx 1 0x2001 x 8 00 00 00 00 7A 00 0F 36 
13:51:29:7880 Rx 1 0x2001 x 8 00 00 00 00 7A 00 0F 36 
13:51:29:8020 Rx 1 0x2001 x 8 00 00 00 00 7A 00 0F 36 
13:51:29:8030 Rx 1 0x2001 x 8 00 00 00 00 7A 00 0F 36 
13:51:29:8030 Rx 1 0x2001 x 8 00 00 00 00 7A 00 0F 36 
13:51:29:8030 Rx 1 0x2001 x 8 00 00 00 00 7A 00 0F 36 
13:51:29:8030 Rx 1 0x2001 x 8 00 00 00 00 7A 00 0F 36 
13:51:29:8080 Rx 1 0x2001 x 8 00 00 00 00 7A 00 0F 36 
13:51:29:8080 Rx 1 0x2001 x 8 00 00 00 00 7A 00 0F 36 
13:51:29:8160 Rx 1 0x2001 x 8 00 00 00 00 7A 00 0F 36 
13:51:29:8180 Rx 1 0x2001 x 8 00 00 00 00 7A 00 0F 36 
13:51:29:8180 Rx 1 0x2001 x 8 00 00 00 00 7A 00 0F 36 
13:51:29:8180 Rx 1 0x2001 x 8 00 00 00 00 7A 00 0F 36 
13:51:29:8180 Rx 1 0x2001 x 8 00 00 00 00 7A 00 0F 36 
13:51:29:8220 Rx 1 0x2001 x 8 00 00 00 00 7A 00 0F 36 
13:51:29:8230 Rx 1 0x2001 x 8 00 00 00 00 7A 00 0F 36 
13:51:29:8230 Rx 1 0x2001 x 8 00 00 00 00 7A 00 0F 36 
13:51:29:8280 Rx 1 0x2001 x 8 00 00 00 00 7A 00 0F 36 
13:51:29:8380 Rx 1 0x2001 x 8 00 00 00 00 7A 00 0F 36 
13:51:29:8430 Rx 1 0x2001 x 8 00 00 00 00 7A 00 0F 36 
13:51:29:8430 Rx 1 0x2001 x 8 00 00 00 00 7A 00 0F 36 
13:51:29:8430 Rx 1 0x2001 x 8 00 00 00 00 7A 00 0F 36 
13:51:29:8430 Rx 1 0x2001 x 8 00 00 00 00 7A 00 0F 36 
13:51:29:8480 Rx 1 0x2001 x 8 00 00 00 00 7A 00 0F 36 
13:51:29:8630 Rx 1 0x2001 x 8 00 00 00 00 7A 00 0F 36 
13:51:29:8630 Rx 1 0x2001 x 8 00 00 00 00 7A 00 0F 36 
13:51:29:8630 Rx 1 0x2001 x 8 00 00 00 00 7A 00 0F 36 
13:51:29:8640 Rx 1 0x2001 x 8 00 00 00 00 7A 00 0F 36 
13:51:29:8680 Rx 1 0x2001 x 8 00 00 00 00 7A 00 0F 36 
13:51:29:8680 Rx 1 0x2001 x 8 00 00 00 00 7A 00 0F 36 
13:51:29:8680 Rx 1 0x2001 x 8 00 00 00 00 7A 00 0F 36 
13:51:29:8830 Rx 1 0x2001 x 8 00 00 00 00 7A 00 0F 36 
13:51:29:8830 Rx 1 0x2001 x 8 00 00 00 00 7A 00 0F 36 
13:51:29:8830 Rx 1 0x2001 x 8 00 00 00 00 7A 00 0F 36 
13:51:29:8880 Rx 1 0x2001 x 8 00 00 00 00 7A 00 0F 36 
13:51:29:9020 Rx 1 0x2001 x 8 00 00 00 00 7A 00 0F 36 
13:51:29:9030 Rx 1 0x2001 x 8 00 00 00 00 7A 00 0F 36 
13:51:29:9030 Rx 1 0x2001 x 8 00 00 00 00 7A 00 0F 36 
13:51:29:9030 Rx 1 0x2001 x 8 00 00 00 00 7A 00 0F 36 
13:51:29:9030 Rx 1 0x2001 x 8 00 00 00 00 7A 00 0F 36 
13:51:29:9080 Rx 1 0x2001 x 8 00 00 00 00 7A 00 0F 36 
13:51:29:9080 Rx 1 0x2001 x 8 00 00 00 00 7A 00 0F 36 
13:51:29:9080 Rx 1 0x2001 x 8 00 00 00 00 7A 00 0F 36 
13:51:29:9080 Rx 1 0x2001 x 8 00 00 00 00 7A 00 0F 36 
13:51:29:9080 Rx 1 0x2001 x 8 00 00 00 00 7A 00 0F 36 
13:51:29:9080 Rx 1 0x2001 x 8 00 00 00 00 7A 00 0F 36 
13:51:29:9120 Rx 1 0x2001 x 8 00 00 00 00 7A 00 0F 36 
13:51:29:9230 Rx 1 0x2001 x 8 00 00 00 00 7A 00 0F 36 
13:51:29:9230 Rx 1 0x2001 x 8 00 00 00 00 7A 00 0F 36 
13:51:29:9230 Rx 1 0x2001 x 8 00 00 00 00 7A 00 0F 36 
13:51:29:9230 Rx 1 0x2001 x 8 00 00 00 00 7A 00 0F 36 
13:51:29:9280 Rx 1 0x2001 x 8 00 00 00 00 7A 00 0F 36 
13:51:29:9280 Rx 1 0x2001 x 8 00 00 00 00 7A 00 0F 36 
13:51:29:9380 Rx 1 0x2001 x 8 00 00 00 00 7A 00 0F 36 
13:51:29:9380 Rx 1 0x2001 x 8 00 00 00 00 7A 00 0F 36 
13:51:29:9380 Rx 1 0x580 s 8 00 00 07 80 00 00 00 01 
13:51:29:9430 Rx 1 0x2001 x 8 00 00 00 00 00 00 00 01 
13:51:29:9430 Rx 1 0x2001 x 8 00 00 00 00 00 00 00 01 
13:51:29:9430 Rx 1 0x2001 x 8 00 00 00 00 00 00 00 01 
13:51:29:9430 Rx 1 0x2001 x 8 00 00 00 00 00 00 00 01 
13:51:29:9430 Rx 1 0x2001 x 8 00 00 00 00 00 00 00 01 
13:51:29:9480 Rx 1 0x2001 x 8 00 00 00 00 00 00 00 01 
13:51:29:9600 Rx 1 0x2001 x 8 00 00 00 00 00 00 00 01 
13:51:29:9630 Rx 1 0x2001 x 8 00 00 00 00 00 00 00 01 
13:51:29:9630 Rx 1 0x2001 x 8 00 00 00 00 00 00 00 01 
13:51:29:9630 Rx 1 0x2001 x 8 00 00 00 00 00 00 00 01 
13:51:29:9630 Rx 1 0x2001 x 8 00 00 00 00 00 00 00 01 
13:51:29:9680 Rx 1 0x2001 x 8 00 00 00 00 00 00 00 01 
13:51:29:9680 Rx 1 0x2001 x 8 00 00 00 00 00 00 00 01 
13:51:29:9820 Rx 1 0x2001 x 8 00 00 00 00 00 00 00 01 
13:51:29:9830 Rx 1 0x2001 x 8 00 00 00 00 00 00 00 01 
13:51:29:9830 Rx 1 0x2001 x 8 00 00 00 00 00 00 00 01 
13:51:29:9880 Rx 1 0x2001 x 8 00 00 00 00 00 00 00 01 
13:51:29:9880 Rx 1 0x2001 x 8 00 00 00 00 00 00 00 01 
13:51:30:0030 Rx 1 0x2001 x 8 00 00 00 00 00 00 00 01 
13:51:30:0030 Rx 1 0x2001 x 8 00 00 00 00 00 00 00 01 
13:51:30:0030 Rx 1 0x2001 x 8 00 00 00 00 00 00 00 01 
13:51:30:0030 Rx 1 0x2001 x 8 00 00 00 00 00 00 00 01 
13:51:30:0030 Rx 1 0x2001 x 8 00 00 00 00 00 00 00 01 
13:51:30:0080 Rx 1 0x2001 x 8 00 00 00 00 00 00 00 01 
13:51:30:0080 Rx 1 0x2001 x 8 00 00 00 00 00 00 00 01 
13:51:30:0090 Rx 1 0x2001 x 8 00 00 00 00 00 00 00 01 
13:51:30:0220 Rx 1 0x2001 x 8 00 00 00 00 00 00 00 01 
13:51:30:0230 Rx 1 0x2001 x 8 00 00 00 00 00 00 00 01 
13:51:30:0230 Rx 1 0x2001 x 8 00 00 00 00 00 00 00 01 
13:51:30:0280 Rx 1 0x2001 x 8 00 00 00 00 00 00 00 01 
13:51:30:0280 Rx 1 0x2001 x 8 00 00 00 00 00 00 00 01 
13:51:30:0280 Rx 1 0x2001 x 8 00 00 00 00 00 00 00 01 
13:51:30:0380 Rx 1 0x2001 x 8 00 00 00 00 00 00 00 01 
13:51:30:0420 Rx 1 0x2001 x 8 00 00 00 00 00 00 00 01 
13:51:30:0420 Rx 1 0x2001 x 8 00 00 00 00 00 00 00 01 
13:51:30:0430 Rx 1 0x2001 x 8 00 00 00 00 00 00 00 01 
13:51:30:0430 Rx 1 0x2001 x 8 00 00 00 00 00 00 00 01 
13:51:30:0480 Rx 1 0x2001 x 8 00 00 00 00 00 00 00 01 
13:51:30:0530 Rx 1 0x600 s 8 01 42 00 00 01 90 08 01 
13:51:30:0570 Rx 1 0x2001 x 8 00 00 00 00 01 90 08 01 
13:51:30:0570 Rx 1 0x2001 x 8 00 00 00 00 01 90 08 01 
13:51:30:0570 Rx 1 0x2001 x 8 00 00 00 00 01 90 08 01 
13:51:30:0570 Rx 1 0x2001 x 8 00 00 00 00 01 90 08 01 
13:51:30:0570 Rx 1 0x2001 x 8 00 00 00 00 01 90 08 01 
13:51:30:0570 Rx 1 0x2001 x 8 00 00 00 00 01 90 08 01 
13:51:30:0580 Rx 1 0x2001 x 8 00 00 00 00 01 90 08 01 
13:51:30:0610 Rx 1 0x2001 x 8 00 00 00 00 01 90 08 01 
13:51:30:0620 Rx 1 0x2001 x 8 00 00 00 00 01 90 08 01 
13:51:30:0630 Rx 1 0x2001 x 8 00 00 00 00 01 90 08 01 
13:51:30:0630 Rx 1 0x2001 x 8 00 00 00 00 01 90 08 01 
13:51:30:0680 Rx 1 0x2001 x 8 00 00 00 00 01 90 08 01 
13:51:30:0680 Rx 1 0x2001 x 8 00 00 00 00 01 90 08 01 
13:51:30:0820 Rx 1 0x2001 x 8 00 00 00 00 01 90 08 01 
13:51:30:0830 Rx 1 0x2001 x 8 00 00 00 00 01 90 08 01 
13:51:30:0830 Rx 1 0x2001 x 8 00 00 00 00 01 90 08 01 
13:51:30:0880 Rx 1 0x2001 x 8 00 00 00 00 01 90 08 01 
13:51:30:1030 Rx 1 0x2001 x 8 00 00 00 00 01 90 08 01 
13:51:30:1030 Rx 1 0x2001 x 8 00 00 00 00 01 90 08 01 
13:51:30:1030 Rx 1 0x2001 x 8 00 00 00 00 01 90 08 01 
13:51:30:1030 Rx 1 0x2001 x 8 00 00 00 00 01 90 08 01 
13:51:30:1030 Rx 1 0x2001 x 8 00 00 00 00 01 90 08 01 
13:51:30:1050 Rx 1 0x2001 x 8 00 00 00 00 01 90 08 01 
13:51:30:1070 Rx 1 0x2001 x 8 00 00 00 00 01 90 08 01 
13:51:30:1070 Rx 1 0x2001 x 8 00 00 00 00 01 90 08 01 
13:51:30:1070 Rx 1 0x2001 x 8 00 00 00 00 01 90 08 01 
13:51:30:1080 Rx 1 0x2001 x 8 00 00 00 00 01 90 08 01 
13:51:30:1220 Rx 1 0x2001 x 8 00 00 00 00 01 90 08 01 
13:51:30:1230 Rx 1 0x2001 x 8 00 00 00 00 01 90 08 01 
13:51:30:1230 Rx 1 0x2001 x 8 00 00 00 00 01 90 08 01 
13:51:30:1230 Rx 1 0x2001 x 8 00 00 00 00 01 90 08 01 
13:51:30:1280 Rx 1 0x2001 x 8 00 00 00 00 01 90 08 01 
13:51:30:1280 Rx 1 0x2001 x 8 00 00 00 00 01 90 08 01 
13:51:30:1330 Rx 1 0x2001 x 8 00 00 00 00 01 90 08 01 
13:51:30:1380 Rx 1 0x2001 x 8 00 00 00 00 01 90 08 01 
13:51:30:1380 Rx 1 0x580 s 8 00 00 07 80 00 00 00 01 
13:51:30:1430 Rx 1 0x2001 x 8 00 00 00 00 00 00 00 01 
13:51:30:1430 Rx 1 0x2001 x 8 00 00 00 00 00 00 00 01 
13:51:30:1430 Rx 1 0x2001 x 8 00 00 00 00 00 00 00 01 
13:51:30:1430 Rx 1 0x2001 x 8 00 00 00 00 00 00 00 01 
13:51:30:1430 Rx 1 0x2001 x 8 00 00 00 00 00 00 00 01 
13:51:30:1480 Rx 1 0x2001 x 8 00 00 00 00 00 00 00 01 
13:51:30:1480 Rx 1 0x287 s 8 03 00 00 00 00 00 0F ED 
13:51:30:1530 Rx 1 0x2001 x 8 00 00 00 00 00 00 0F ED 
13:51:30:1530 Rx 1 0x2001 x 8 00 00 00 00 00 00 0F ED 
13:51:30:1530 Rx 1 0x2001 x 8 00 00 00 00 00 00 0F ED 
13:51:30:1530 Rx 1 0x2001 x 8 00 00 00 00 00 00 0F ED 
13:51:30:1530 Rx 1 0x2001 x 8 00 00 00 00 00 00 0F ED 
13:51:30:1620 Rx 1 0x2001 x 8 00 00 00 00 00 00 0F ED 
13:51:30:1630 Rx 1 0x2001 x 8 00 00 00 00 00 00 0F ED 
13:51:30:1630 Rx 1 0x2001 x 8 00 00 00 00 00 00 0F ED 
13:51:30:1630 Rx 1 0x2001 x 8 00 00 00 00 00 00 0F ED 
13:51:30:1680 Rx 1 0x2001 x 8 00 00 00 00 00 00 0F ED 
13:51:30:1680 Rx 1 0x287 s 8 03 00 00 00 00 00 00 FC 
13:51:30:1820 Rx 1 0x2001 x 8 00 00 00 00 00 00 00 FC 
13:51:30:1830 Rx 1 0x2001 x 8 00 00 00 00 00 00 00 FC 
13:51:30:1830 Rx 1 0x2001 x 8 00 00 00 00 00 00 00 FC 
13:51:30:1830 Rx 1 0x2001 x 8 00 00 00 00 00 00 00 FC 
13:51:30:1880 Rx 1 0x2001 x 8 00 00 00 00 00 00 00 FC 
13:51:30:2010 Rx 1 0x2001 x 8 00 00 00 00 00 00 00 FC 
13:51:30:2030 Rx 1 0x2001 x 8 00 00 00 00 00 00 00 FC 
13:51:30:2030 Rx 1 0x2001 x 8 00 00 00 00 00 00 00 FC 
13:51:30:2030 Rx 1 0x2001 x 8 00 00 00 00 00 00 00 FC 
13:51:30:2030 Rx 1 0x2001 x 8 00 00 00 00 00 00 00 FC 
13:51:30:2030 Rx 1 0x2001 x 8 00 00 00 00 00 00 00 FC 
13:51:30:2080 Rx 1 0x2001 x 8 00 00 00 00 00 00 00 FC 
13:51:30:2080 Rx 1 0x287 s 8 03 00 00 00 00 00 02 FA 
13:51:30:2220 Rx 1 0x2001 x 8 00 00 00 00 00 00 02 FA 
13:51:30:2230 Rx 1 0x2001 x 8 00 00 00 00 00 00 02 FA 
13:51:30:2230 Rx 1 0x2001 x 8 00 00 00 00 00 00 02 FA 
13:51:30:2230 Rx 1 0x2001 x 8 00 00 00 00 00 00 02 FA 
13:51:30:2230 Rx 1 0x2001 x 8 00 00 00 00 00 00 02 FA 
13:51:30:2280 Rx 1 0x2001 x 8 00 00 00 00 00 00 02 FA 
13:51:30:2280 Rx 1 0x287 s 8 03 00 00 00 00 00 03 F9 
13:51:30:2380 Rx 1 0x2001 x 8 00 00 00 00 00 00 03 F9 
13:51:30:2380 Rx 1 0x535 s 8 00 00 70 00 00 00 00 BA 
13:51:30:2380 Rx 1 0x580 s 8 00 00 07 80 00 00 00 01 
13:51:30:2420 Rx 1 0x2001 x 8 00 00 00 00 00 00 00 01 
13:51:30:2430 Rx 1 0x2001 x 8 00 00 00 00 00 00 00 01 
13:51:30:2430 Rx 1 0x2001 x 8 00 00 00 00 00 00 00 01 
13:51:30:2430 Rx 1 0x2001 x 8 00 00 00 00 00 00 00 01 
13:51:30:2430 Rx 1 0x2001 x 8 00 00 00 00 00 00 00 01 
13:51:30:2480 Rx 1 0x2001 x 8 00 00 00 00 00 00 00 01 
13:51:30:2500 Rx 1 0x2001 x 8 00 00 00 00 00 00 00 01 
13:51:30:2620 Rx 1 0x2001 x 8 00 00 00 00 00 00 00 01 
13:51:30:2630 Rx 1 0x2001 x 8 00 00 00 00 00 00 00 01 
13:51:30:2630 Rx 1 0x2001 x 8 00 00 00 00 00 00 00 01 
13:51:30:2680 Rx 1 0x2001 x 8 00 00 00 00 00 00 00 01 
13:51:30:2680 Rx 1 0x287 s 8 03 00 00 00 00 00 05 F7 
13:51:30:2820 Rx 1 0x2001 x 8 00 00 00 00 00 00 05 F7 
13:51:30:2820 Rx 1 0x2001 x 8 00 00 00 00 00 00 05 F7 
13:51:30:2830 Rx 1 0x2001 x 8 00 00 00 00 00 00 05 F7 
13:51:30:2830 Rx 1 0x2001 x 8 00 00 00 00 00 00 05 F7 
13:51:30:2830 Rx 1 0x2001 x 8 00 00 00 00 00 00 05 F7 
13:51:30:2880 Rx 1 0x2001 x 8 00 00 00 00 00 00 05 F7 
13:51:30:2980 Rx 1 0x2001 x 8 00 00 00 00 00 00 05 F7 
13:51:30:3030 Rx 1 0x2001 x 8 00 00 00 00 00 00 05 F7 
13:51:30:3030 Rx 1 0x2001 x 8 00 00 00 00 00 00 05 F7 
13:51:30:3030 Rx 1 0x2001 x 8 00 00 00 00 00 00 05 F7 
13:51:30:3030 Rx 1 0x2001 x 8 00 00 00 00 00 00 05 F7 
13:51:30:3030 Rx 1 0x2001 x 8 00 00 00 00 00 00 05 F7 
13:51:30:3080 Rx 1 0x2001 x 8 00 00 00 00 00 00 05 F7 
13:51:30:3230 Rx 1 0x2001 x 8 00 00 00 00 00 00 05 F7 
13:51:30:3230 Rx 1 0x2001 x 8 00 00 00 00 00 00 05 F7 
13:51:30:3230 Rx 1 0x2001 x 8 00 00 00 00 00 00 05 F7 
13:51:30:3280 Rx 1 0x2001 x 8 00 00 00 00 00 00 05 F7 
13:51:30:3280 Rx 1 0x2001 x 8 00 00 00 00 00 00 05 F7 
13:51:30:3280 Rx 1 0x2001 x 8 00 00 00 00 00 00 05 F7 
13:51:30:3280 Rx 1 0x2001 x 8 00 00 00 00 00 00 05 F7 
13:51:30:3280 Rx 1 0x2001 x 8 00 00 00 00 00 00 05 F7 
13:51:30:3280 Rx 1 0x2001 x 8 00 00 00 00 00 00 05 F7 
13:51:30:3380 Rx 1 0x2001 x 8 00 00 00 00 00 00 05 F7 
13:51:30:3380 Rx 1 0x2001 x 8 00 00 00 00 00 00 05 F7 
13:51:30:3420 Rx 1 0x2001 x 8 00 00 00 00 00 00 05 F7 
13:51:30:3430 Rx 1 0x2001 x 8 00 00 00 00 00 00 05 F7 
13:51:30:3430 Rx 1 0x2001 x 8 00 00 00 00 00 00 05 F7 
13:51:30:3430 Rx 1 0x2001 x 8 00 00 00 00 00 00 05 F7 
13:51:30:3430 Rx 1 0x500 s 8 00 00 01 FE 00 64 00 00 
13:51:30:3460 Rx 1 0x2001 x 8 00 00 00 00 00 64 00 00 
13:51:30:3460 Rx 1 0x2001 x 8 00 00 00 00 00 64 00 00 
13:51:30:3470 Rx 1 0x480 s 8 00 00 00 40 7A 00 0B 3A 
13:51:30:3620 Rx 1 0x2001 x 8 00 00 00 00 7A 00 0B 3A 
13:51:30:3630 Rx 1 0x2001 x 8 00 00 00 00 7A 00 0B 3A 
13:51:30:3630 Rx 1 0x2001 x 8 00 00 00 00 7A 00 0B 3A 
13:51:30:3630 Rx 1 0x2001 x 8 00 00 00 00 7A 00 0B 3A 
13:51:30:3630 Rx 1 0x2001 x 8 00 00 00 00 7A 00 0B 3A 
13:51:30:3680 Rx 1 0x2001 x 8 00 00 00 00 7A 00 0B 3A 
13:51:30:3680 Rx 1 0x2001 x 8 00 00 00 00 7A 00 0B 3A 
13:51:30:3820 Rx 1 0x2001 x 8 00 00 00 00 7A 00 0B 3A 
13:51:30:3830 Rx 1 0x2001 x 8 00 00 00 00 7A 00 0B 3A 
13:51:30:3830 Rx 1 0x2001 x 8 00 00 00 00 7A 00 0B 3A 
13:51:30:3830 Rx 1 0x2001 x 8 00 00 00 00 7A 00 0B 3A 
13:51:30:3880 Rx 1 0x2001 x 8 00 00 00 00 7A 00 0B 3A 
13:51:30:3940 Rx 1 0x2001 x 8 00 00 00 00 7A 00 0B 3A 
13:51:30:4030 Rx 1 0x2001 x 8 00 00 00 00 7A 00 0B 3A 
13:51:30:4030 Rx 1 0x2001 x 8 00 00 00 00 7A 00 0B 3A 
13:51:30:4030 Rx 1 0x2001 x 8 00 00 00 00 7A 00 0B 3A 
13:51:30:4030 Rx 1 0x2001 x 8 00 00 00 00 7A 00 0B 3A 
13:51:30:4030 Rx 1 0x2001 x 8 00 00 00 00 7A 00 0B 3A 
13:51:30:4080 Rx 1 0x2001 x 8 00 00 00 00 7A 00 0B 3A 
13:51:30:4080 Rx 1 0x2001 x 8 00 00 00 00 7A 00 0B 3A 
13:51:30:4220 Rx 1 0x2001 x 8 00 00 00 00 7A 00 0B 3A 
13:51:30:4220 Rx 1 0x2001 x 8 00 00 00 00 7A 00 0B 3A 
13:51:30:4230 Rx 1 0x2001 x 8 00 00 00 00 7A 00 0B 3A 
13:51:30:4230 Rx 1 0x2001 x 8 00 00 00 00 7A 00 0B 3A 
13:51:30:4280 Rx 1 0x2001 x 8 00 00 00 00 7A 00 0B 3A 
13:51:30:4280 Rx 1 0x287 s 8 03 00 00 00 00 00 0D EF 
13:51:30:4380 Rx 1 0x2001 x 8 00 00 00 00 00 00 0D EF 
13:51:30:4380 Rx 1 0x580 s 8 00 00 07 80 00 00 00 01 
13:51:30:4420 Rx 1 0x2001 x 8 00 00 00 00 00 00 00 01 
13:51:30:4420 Rx 1 0x2001 x 8 00 00 00 00 00 00 00 01 
13:51:30:4430 Rx 1 0x2001 x 8 00 00 00 00 00 00 00 01 
13:51:30:4430 Rx 1 0x2001 x 8 00 00 00 00 00 00 00 01 
13:51:30:4430 Rx 1 0x2001 x 8 00 00 00 00 00 00 00 01 
13:51:30:4430 Rx 1 0x2001 x 8 00 00 00 00 00 00 00 01 
13:51:30:4480 Rx 1 0x2001 x 8 00 00 00 00 00 00 00 01 
13:51:30:4480 Rx 1 0x2001 x 8 00 00 00 00 00 00 00 01 
13:51:30:4480 Rx 1 0x2001 x 8 00 00 00 00 00 00 00 01 
13:51:30:4480 Rx 1 0x2001 x 8 00 00 00 00 00 00 00 01 
13:51:30:4480 Rx 1 0x2001 x 8 00 00 00 00 00 00 00 01 
13:51:30:4620 Rx 1 0x2001 x 8 00 00 00 00 00 00 00 01 
13:51:30:4630 Rx 1 0x2001 x 8 00 00 00 00 00 00 00 01 
13:51:30:4630 Rx 1 0x2001 x 8 00 00 00 00 00 00 00 01 
13:51:30:4680 Rx 1 0x2001 x 8 00 00 00 00 00 00 00 01 
13:51:30:4830 Rx 1 0x2001 x 8 00 00 00 00 00 00 00 01 
13:51:30:4830 Rx 1 0x2001 x 8 00 00 00 00 00 00 00 01 
13:51:30:4830 Rx 1 0x2001 x 8 00 00 00 00 00 00 00 01 
13:51:30:4880 Rx 1 0x2001 x 8 00 00 00 00 00 00 00 01 
13:51:30:4880 Rx 1 0x287 s 8 03 00 00 00 00 00 00 FC 
13:51:30:4910 Rx 1 0x2001 x 8 00 00 00 00 00 00 00 FC 
13:51:30:4910 Rx 1 0x480 s 8 00 00 00 40 7A 00 0E 37 
13:51:30:5020 Rx 1 0x2001 x 8 00 00 00 00 7A 00 0E 37 
13:51:30:5030 Rx 1 0x2001 x 8 00 00 00 00 7A 00 0E 37 
13:51:30:5030 Rx 1 0x2001 x 8 00 00 00 00 7A 00 0E 37 
13:51:30:5080 Rx 1 0x2001 x 8 00 00 00 00 7A 00 0E 37 
13:51:30:5080 Rx 1 0x287 s 8 03 00 00 00 00 00 01 FB 
13:51:30:5220 Rx 1 0x2001 x 8 00 00 00 00 00 00 01 FB 
13:51:30:5230 Rx 1 0x2001 x 8 00 00 00 00 00 00 01 FB 
13:51:30:5230 Rx 1 0x2001 x 8 00 00 00 00 00 00 01 FB 
13:51:30:5230 Rx 1 0x2001 x 8 00 00 00 00 00 00 01 FB 
13:51:30:5230 Rx 1 0x2001 x 8 00 00 00 00 00 00 01 FB 
13:51:30:5280 Rx 1 0x2001 x 8 00 00 00 00 00 00 01 FB 
13:51:30:5380 Rx 1 0x2001 x 8 00 00 00 00 00 00 01 FB 
13:51:30:5390 Rx 1 0x2001 x 8 00 00 00 00 00 00 01 FB 
13:51:30:5420 Rx 1 0x2001 x 8 00 00 00 00 00 00 01 FB 
13:51:30:5430 Rx 1 0x2001 x 8 00 00 00 00 00 00 01 FB 
13:51:30:5430 Rx 1 0x2001 x 8 00 00 00 00 00 00 01 FB 
13:51:30:5430 Rx 1 0x2001 x 8 00 00 00 00 00 00 01 FB 
13:51:30:5430 Rx 1 0x2001 x 8 00 00 00 00 00 00 01 FB 
13:51:30:5430 Rx 1 0x2001 x 8 00 00 00 00 00 00 01 FB 
13:51:30:5430 Rx 1 0x2001 x 8 00 00 00 00 00 00 01 FB 
13:51:30:5430 Rx 1 0x2001 x 8 00 00 00 00 00 00 01 FB 
13:51:30:5480 Rx 1 0x2001 x 8 00 00 00 00 00 00 01 FB 
13:51:30:5480 Rx 1 0x287 s 8 03 00 00 00 00 00 03 F9 
13:51:30:5620 Rx 1 0x2001 x 8 00 00 00 00 00 00 03 F9 
13:51:30:5620 Rx 1 0x2001 x 8 00 00 00 00 00 00 03 F9 
13:51:30:5630 Rx 1 0x2001 x 8 00 00 00 00 00 00 03 F9 
13:51:30:5630 Rx 1 0x2001 x 8 00 00 00 00 00 00 03 F9 
13:51:30:5630 Rx 1 0x2001 x 8 00 00 00 00 00 00 03 F9 
13:51:30:5680 Rx 1 0x2001 x 8 00 00 00 00 00 00 03 F9 
13:51:30:5680 Rx 1 0x2001 x 8 00 00 00 00 00 00 03 F9 
13:51:30:5830 Rx 1 0x2001 x 8 00 00 00 00 00 00 03 F9 
13:51:30:5830 Rx 1 0x2001 x 8 00 00 00 00 00 00 03 F9 
13:51:30:5830 Rx 1 0x2001 x 8 00 00 00 00 00 00 03 F9 
13:51:30:5870 Rx 1 0x2001 x 8 00 00 00 00 00 00 03 F9 
13:51:30:5870 Rx 1 0x2001 x 8 00 00 00 00 00 00 03 F9 
13:51:30:5870 Rx 1 0x2001 x 8 00 00 00 00 00 00 03 F9 
13:51:30:5870 Rx 1 0x2001 x 8 00 00 00 00 00 00 03 F9 
13:51:30:5880 Rx 1 0x2001 x 8 00 00 00 00 00 00 03 F9 
13:51:30:6020 Rx 1 0x2001 x 8 00 00 00 00 00 00 03 F9 
13:51:30:6020 Rx 1 0x2001 x 8 00 00 00 00 00 00 03 F9 
13:51:30:6030 Rx 1 0x2001 x 8 00 00 00 00 00 00 03 F9 
13:51:30:6030 Rx 1 0x2001 x 8 00 00 00 00 00 00 03 F9 
13:51:30:6030 Rx 1 0x2001 x 8 00 00 00 00 00 00 03 F9 
13:51:30:6080 Rx 1 0x2001 x 8 00 00 00 00 00 00 03 F9 
13:51:30:6080 Rx 1 0x2001 x 8 00 00 00 00 00 00 03 F9 
13:51:30:6230 Rx 1 0x2001 x 8 00 00 00 00 00 00 03 F9 
13:51:30:6230 Rx 1 0x2001 x 8 00 00 00 00 00 00 03 F9 
13:51:30:6230 Rx 1 0x2001 x 8 00 00 00 00 00 00 03 F9 
13:51:30:6230 Rx 1 0x2001 x 8 00 00 00 00 00 00 03 F9 
13:51:30:6280 Rx 1 0x2001 x 8 00 00 00 00 00 00 03 F9 
13:51:30:6280 Rx 1 0x287 s 8 03 00 00 00 00 00 07 F5 
13:51:30:6350 Rx 1 0x2001 x 8 00 00 00 00 00 00 07 F5 
13:51:30:6350 Rx 1 0x2001 x 8 00 00 00 00 00 00 07 F5 
13:51:30:6360 Rx 1 0x480 s 8 00 00 00 40 7A 00 01 44 
13:51:30:6370 Rx 1 0x2001 x 8 00 00 00 00 7A 00 01 44 
13:51:30:6380 Rx 1 0x2001 x 8 00 00 00 00 7A 00 01 44 
13:51:30:6380 Rx 1 0x2001 x 8 00 00 00 00 7A 00 01 44 
13:51:30:6380 Rx 1 0x2001 x 8 00 00 00 00 7A 00 01 44 
13:51:30:6380 Rx 1 0x2001 x 8 00 00 00 00 7A 00 01 44 
13:51:30:6430 Rx 1 0x2001 x 8 00 00 00 00 7A 00 01 44 
13:51:30:6430 Rx 1 0x2001 x 8 00 00 00 00 7A 00 01 44 
13:51:30:6430 Rx 1 0x2001 x 8 00 00 00 00 7A 00 01 44 
13:51:30:6430 Rx 1 0x2001 x 8 00 00 00 00 7A 00 01 44 
13:51:30:6430 Rx 1 0x2001 x 8 00 00 00 00 7A 00 01 44 
13:51:30:6430 Rx 1 0x2001 x 8 00 00 00 00 7A 00 01 44 
13:51:30:6480 Rx 1 0x2001 x 8 00 00 00 00 7A 00 01 44 
13:51:30:6480 Rx 1 0x2001 x 8 00 00 00 00 7A 00 01 44 
13:51:30:6580 Rx 1 0x2001 x 8 00 00 00 00 7A 00 01 44 
13:51:30:6620 Rx 1 0x2001 x 8 00 00 00 00 7A 00 01 44 
13:51:30:6630 Rx 1 0x2001 x 8 00 00 00 00 7A 00 01 44 
13:51:30:6630 Rx 1 0x2001 x 8 00 00 00 00 7A 00 01 44 
13:51:30:6680 Rx 1 0x2001 x 8 00 00 00 00 7A 00 01 44 
13:51:30:6830 Rx 1 0x2001 x 8 00 00 00 00 7A 00 01 44 
13:51:30:6830 Rx 1 0x2001 x 8 00 00 00 00 7A 00 01 44 
13:51:30:6830 Rx 1 0x2001 x 8 00 00 00 00 7A 00 01 44 
13:51:30:6830 Rx 1 0x2001 x 8 00 00 00 00 7A 00 01 44 
13:51:30:6870 Rx 1 0x2001 x 8 00 00 00 00 7A 00 01 44 
13:51:30:6870 Rx 1 0x2001 x 8 00 00 00 00 7A 00 01 44 
13:51:30:6880 Rx 1 0x2001 x 8 00 00 00 00 7A 00 01 44 
13:51:30:6880 Rx 1 0x2001 x 8 00 00 00 00 7A 00 01 44 
13:51:30:7020 Rx 1 0x2001 x 8 00 00 00 00 7A 00 01 44 
13:51:30:7020 Rx 1 0x2001 x 8 00 00 00 00 7A 00 01 44 
13:51:30:7020 Rx 1 0x2001 x 8 00 00 00 00 7A 00 01 44 
13:51:30:7030 Rx 1 0x2001 x 8 00 00 00 00 7A 00 01 44 
13:51:30:7030 Rx 1 0x2001 x 8 00 00 00 00 7A 00 01 44 
13:51:30:7030 Rx 1 0x2001 x 8 00 00 00 00 7A 00 01 44 
13:51:30:7080 Rx 1 0x2001 x 8 00 00 00 00 7A 00 01 44 
13:51:30:7080 Rx 1 0x287 s 8 03 00 00 00 00 00 0B F1 
13:51:30:7230 Rx 1 0x2001 x 8 00 00 00 00 00 00 0B F1 
13:51:30:7230 Rx 1 0x2001 x 8 00 00 00 00 00 00 0B F1 
13:51:30:7230 Rx 1 0x2001 x 8 00 00 00 00 00 00 0B F1 
13:51:30:7230 Rx 1 0x2001 x 8 00 00 00 00 00 00 0B F1 
13:51:30:7230 Rx 1 0x2001 x 8 00 00 00 00 00 00 0B F1 
13:51:30:7280 Rx 1 0x2001 x 8 00 00 00 00 00 00 0B F1 
13:51:30:7280 Rx 1 0x2001 x 8 00 00 00 00 00 00 0B F1 
13:51:30:7310 Rx 1 0x2001 x 8 00 00 00 00 00 00 0B F1 
13:51:30:7370 Rx 1 0x2001 x 8 00 00 00 00 00 00 0B F1 
13:51:30:7420 Rx 1 0x2001 x 8 00 00 00 00 00 00 0B F1 
13:51:30:7420 Rx 1 0x2001 x 8 00 00 00 00 00 00 0B F1 
13:51:30:7430 Rx 1 0x2001 x 8 00 00 00 00 00 00 0B F1 
13:51:30:7430 Rx 1 0x2001 x 8 00 00 00 00 00 00 0B F1 
13:51:30:7430 Rx 1 0x2001 x 8 00 00 00 00 00 00 0B F1 
13:51:30:7480 Rx 1 0x2001 x 8 00 00 00 00 00 00 0B F1 
13:51:30:7800 Rx 1 0x2001 x 8 00 00 00 00 00 00 0B F1 
13:51:30:8280 Rx 1 0x2001 x 8 00 00 00 00 00 00 0B F1 
13:51:30:8280 Rx 1 0x2001 x 8 00 00 00 00 00 00 0B F1 
13:51:30:8280 Rx 1 0x2001 x 8 00 00 00 00 00 00 0B F1 
13:51:30:8760 Rx 1 0x2001 x 8 00 00 00 00 00 00 0B F1 
13:51:30:9240 Rx 1 0x2001 x 8 00 00 00 00 00 00 0B F1 
13:51:30:9720 Rx 1 0x2001 x 8 00 00 00 00 00 00 0B F1 
13:51:31:0210 Rx 1 0x2001 x 8 00 00 00 00 00 00 0B F1 
13:51:31:0690 Rx 1 0x2001 x 8 00 00 00 00 00 00 0B F1 
13:51:31:1170 Rx 1 0x2001 x 8 00 00 00 00 00 00 0B F1 
13:51:31:1650 Rx 1 0x2001 x 8 00 00 00 00 00 00 0B F1 
13:51:31:2130 Rx 1 0x2001 x 8 00 00 00 00 00 00 0B F1 
13:51:31:2530 Rx 1 0x2001 x 8 00 00 00 00 00 00 0B F1 
13:51:31:2530 Rx 1 0x2001 x 8 00 00 00 00 00 00 0B F1 
13:51:31:2530 Rx 1 0x2001 x 8 00 00 00 00 00 00 0B F1 
13:51:31:2620 Rx 1 0x2001 x 8 00 00 00 00 00 00 0B F1 
13:51:31:2630 Rx 1 0x2001 x 8 00 00 00 00 00 00 0B F1 
13:51:31:2630 Rx 1 0x2001 x 8 00 00 00 00 00 00 0B F1 
13:51:31:2670 Rx 1 0x2001 x 8 00 00 00 00 00 00 0B F1 
13:51:31:2680 Rx 1 0x2001 x 8 00 00 00 00 00 00 0B F1 
13:51:31:2700 Rx 1 0x2001 x 8 00 00 00 00 00 00 0B F1 
13:51:31:2730 Rx 1 0x2001 x 8 00 00 00 00 00 00 0B F1 
13:51:31:2880 Rx 1 0x2001 x 8 00 00 00 00 00 00 0B F1 
13:51:31:2920 Rx 1 0x2001 x 8 00 00 00 00 00 00 0B F1 
13:51:31:2930 Rx 1 0x2001 x 8 00 00 00 00 00 00 0B F1 
13:51:31:2930 Rx 1 0x2001 x 8 00 00 00 00 00 00 0B F1 
13:51:31:2930 Rx 1 0x2001 x 8 00 00 00 00 00 00 0B F1 
13:51:31:2930 Rx 1 0x2001 x 8 00 00 00 00 00 00 0B F1 
13:51:31:2930 Rx 1 0x2001 x 8 00 00 00 00 00 00 0B F1 
13:51:31:3080 Rx 1 0x2001 x 8 00 00 00 00 00 00 0B F1 
13:51:31:3100 Rx 1 0x2001 x 8 00 00 00 00 00 00 0B F1 
13:51:31:3130 Rx 1 0x2001 x 8 00 00 00 00 00 00 0B F1 
13:51:31:3130 Rx 1 0x2001 x 8 00 00 00 00 00 00 0B F1 
13:51:31:3130 Rx 1 0x2001 x 8 00 00 00 00 00 00 0B F1 
13:51:31:3280 Rx 1 0x2001 x 8 00 00 00 00 00 00 0B F1 
13:51:31:3330 Rx 1 0x2001 x 8 00 00 00 00 00 00 0B F1 
13:51:31:3480 Rx 1 0x2001 x 8 00 00 00 00 00 00 0B F1 
13:51:31:3480 Rx 1 0x2001 x 8 00 00 00 00 00 00 0B F1 
13:51:31:3480 Rx 1 0x2001 x 8 00 00 00 00 00 00 0B F1 
13:51:31:3530 Rx 1 0x2001 x 8 00 00 00 00 00 00 0B F1 
13:51:31:3530 Rx 1 0x2001 x 8 00 00 00 00 00 00 0B F1 
13:51:31:3530 Rx 1 0x2001 x 8 00 00 00 00 00 00 0B F1 
13:51:31:3540 Rx 1 0x2001 x 8 00 00 00 00 00 00 0B F1 
13:51:31:3540 Rx 1 0x2001 x 8 00 00 00 00 00 00 0B F1 
13:51:31:3580 Rx 1 0x2001 x 8 00 00 00 00 00 00 0B F1 
13:51:31:3680 Rx 1 0x2001 x 8 00 00 00 00 00 00 0B F1 
13:51:31:3680 Rx 1 0x2001 x 8 00 00 00 00 00 00 0B F1 
13:51:31:3730 Rx 1 0x2001 x 8 00 00 00 00 00 00 0B F1 
13:51:31:3880 Rx 1 0x2001 x 8 00 00 00 00 00 00 0B F1 
13:51:31:3880 Rx 1 0x2001 x 8 00 00 00 00 00 00 0B F1 
13:51:31:3930 Rx 1 0x2001 x 8 00 00 00 00 00 00 0B F1 
13:51:31:4060 Rx 1 0x2001 x 8 00 00 00 00 00 00 0B F1 
13:51:31:4060 Rx 1 0x2001 x 8 00 00 00 00 00 00 0B F1 
13:51:31:4070 Rx 1 0x2001 x 8 00 00 00 00 00 00 0B F1 
13:51:31:4080 Rx 1 0x2001 x 8 00 00 00 00 00 00 0B F1 
13:51:31:4080 Rx 1 0x2001 x 8 00 00 00 00 00 00 0B F1 
13:51:31:4130 Rx 1 0x2001 x 8 00 00 00 00 00 00 0B F1 
13:51:31:4130 Rx 1 0x2001 x 8 00 00 00 00 00 00 0B F1 
13:51:31:4280 Rx 1 0x2001 x 8 00 00 00 00 00 00 0B F1 
13:51:31:4330 Rx 1 0x2001 x 8 00 00 00 00 00 00 0B F1 
13:51:31:4480 Rx 1 0x2001 x 8 00 00 00 00 00 00 0B F1 
13:51:31:4480 Rx 1 0x2001 x 8 00 00 00 00 00 00 0B F1 
13:51:31:4530 Rx 1 0x391 s 8 00 00 80 00 08 00 00 00 
13:51:31:4530 Rx 1 0x500 s 8 00 00 01 FE 00 64 00 00 
13:51:31:4540 Rx 1 0x2001 x 8 00 00 00 00 00 64 00 00 
13:51:31:4550 Rx 1 0x480 s 8 00 00 00 40 7A 00 02 43 
13:51:31:4680 Rx 1 0x2001 x 8 00 00 00 00 7A 00 02 43 
13:51:31:4680 Rx 1 0x2001 x 8 00 00 00 00 7A 00 02 43 
13:51:31:4730 Rx 1 0x2001 x 8 00 00 00 00 7A 00 02 43 
13:51:31:4880 Rx 1 0x2001 x 8 00 00 00 00 7A 00 02 43 
13:51:31:4930 Rx 1 0x2001 x 8 00 00 00 00 7A 00 02 43 
13:51:31:5020 Rx 1 0x2001 x 8 00 00 00 00 7A 00 02 43 
13:51:31:5020 Rx 1 0x2001 x 8 00 00 00 00 7A 00 02 43 
13:51:31:5020 Rx 1 0x2001 x 8 00 00 00 00 7A 00 02 43 
13:51:31:5030 Rx 1 0x2001 x 8 00 00 00 00 7A 00 02 43 
13:51:31:5030 Rx 1 0x2001 x 8 00 00 00 00 7A 00 02 43 
13:51:31:5030 Rx 1 0x2001 x 8 00 00 00 00 7A 00 02 43 
13:51:31:5030 Rx 1 0x2001 x 8 00 00 00 00 7A 00 02 43 
13:51:31:5070 Rx 1 0x2001 x 8 00 00 00 00 7A 00 02 43 
13:51:31:5080 Rx 1 0x2001 x 8 00 00 00 00 7A 00 02 43 
13:51:31:5080 Rx 1 0x2001 x 8 00 00 00 00 7A 00 02 43 
13:51:31:5080 Rx 1 0x2001 x 8 00 00 00 00 7A 00 02 43 
13:51:31:5130 Rx 1 0x2001 x 8 00 00 00 00 7A 00 02 43 
13:51:31:5130 Rx 1 0x2001 x 8 00 00 00 00 7A 00 02 43 
13:51:31:5280 Rx 1 0x2001 x 8 00 00 00 00 7A 00 02 43 
13:51:31:5330 Rx 1 0x2001 x 8 00 00 00 00 7A 00 02 43 
13:51:31:5330 Rx 1 0x2001 x 8 00 00 00 00 7A 00 02 43 
13:51:31:5480 Rx 1 0x2001 x 8 00 00 00 00 7A 00 02 43 
13:51:31:5480 Rx 1 0x2001 x 8 00 00 00 00 7A 00 02 43 
13:51:31:5480 Rx 1 0x2001 x 8 00 00 00 00 7A 00 02 43 
13:51:31:5510 Rx 1 0x2001 x 8 00 00 00 00 7A 00 02 43 
13:51:31:5530 Rx 1 0x2001 x 8 00 00 00 00 7A 00 02 43 
13:51:31:5530 Rx 1 0x2001 x 8 00 00 00 00 7A 00 02 43 
13:51:31:5530 Rx 1 0x2001 x 8 00 00 00 00 7A 00 02 43 
13:51:31:5530 Rx 1 0x2001 x 8 00 00 00 00 7A 00 02 43 
13:51:31:5530 Rx 1 0x2001 x 8 00 00 00 00 7A 00 02 43 
13:51:31:5680 Rx 1 0x2001 x 8 00 00 00 00 7A 00 02 43 
13:51:31:5680 Rx 1 0x2001 x 8 00 00 00 00 7A 00 02 43 
13:51:31:5730 Rx 1 0x2001 x 8 00 00 00 00 7A 00 02 43 
13:51:31:5730 Rx 1 0x2001 x 8 00 00 00 00 7A 00 02 43 
13:51:31:5880 Rx 1 0x2001 x 8 00 00 00 00 7A 00 02 43 
13:51:31:5930 Rx 1 0x391 s 8 00 00 80 00 08 00 00 00 
13:51:31:5990 Rx 1 0x2001 x 8 00 00 00 00 08 00 00 00 
13:51:31:5990 Rx 1 0x2001 x 8 00 00 00 00 08 00 00 00 
13:51:31:6000 Rx 1 0x480 s 8 00 00 00 40 7A 00 05 40 
13:51:31:6080 Rx 1 0x2001 x 8 00 00 00 00 7A 00 05 40 
13:51:31:6080 Rx 1 0x2001 x 8 00 00 00 00 7A 00 05 40 
13:51:31:6080 Rx 1 0x2001 x 8 00 00 00 00 7A 00 05 40 
13:51:31:6130 Rx 1 0x391 s 8 00 00 80 00 08 00 00 00 
13:51:31:6280 Rx 1 0x2001 x 8 00 00 00 00 08 00 00 00 
13:51:31:6280 Rx 1 0x2001 x 8 00 00 00 00 08 00 00 00 
13:51:31:6330 Rx 1 0x2001 x 8 00 00 00 00 08 00 00 00 
13:51:31:6470 Rx 1 0x2001 x 8 00 00 00 00 08 00 00 00 
13:51:31:6470 Rx 1 0x2001 x 8 00 00 00 00 08 00 00 00 
13:51:31:6470 Rx 1 0x2001 x 8 00 00 00 00 08 00 00 00 
13:51:31:6480 Rx 1 0x2001 x 8 00 00 00 00 08 00 00 00 
13:51:31:6530 Rx 1 0x2001 x 8 00 00 00 00 08 00 00 00 
13:51:31:6530 Rx 1 0x2001 x 8 00 00 00 00 08 00 00 00 
13:51:31:6530 Rx 1 0x2001 x 8 00 00 00 00 08 00 00 00 
13:51:31:6680 Rx 1 0x2001 x 8 00 00 00 00 08 00 00 00 
13:51:31:6730 Rx 1 0x2001 x 8 00 00 00 00 08 00 00 00 
13:51:31:6880 Rx 1 0x2001 x 8 00 00 00 00 08 00 00 00 
13:51:31:6880 Rx 1 0x2001 x 8 00 00 00 00 08 00 00 00 
13:51:31:6930 Rx 1 0x2001 x 8 00 00 00 00 08 00 00 00 
13:51:31:6950 Rx 1 0x2001 x 8 00 00 00 00 08 00 00 00 
13:51:31:6950 Rx 1 0x2001 x 8 00 00 00 00 08 00 00 00 
13:51:31:6950 Rx 1 0x2001 x 8 00 00 00 00 08 00 00 00 
13:51:31:6950 Rx 1 0x2001 x 8 00 00 00 00 08 00 00 00 
13:51:31:6950 Rx 1 0x2001 x 8 00 00 00 00 08 00 00 00 
13:51:31:7080 Rx 1 0x2001 x 8 00 00 00 00 08 00 00 00 
13:51:31:7080 Rx 1 0x2001 x 8 00 00 00 00 08 00 00 00 
13:51:31:7130 Rx 1 0x2001 x 8 00 00 00 00 08 00 00 00 
13:51:31:7130 Rx 1 0x2001 x 8 00 00 00 00 08 00 00 00 
13:51:31:7130 Rx 1 0x2001 x 8 00 00 00 00 08 00 00 00 
13:51:31:7280 Rx 1 0x2001 x 8 00 00 00 00 08 00 00 00 
13:51:31:7330 Rx 1 0x2001 x 8 00 00 00 00 08 00 00 00 
13:51:31:7330 Rx 1 0x2001 x 8 00 00 00 00 08 00 00 00 
13:51:31:7330 Rx 1 0x2001 x 8 00 00 00 00 08 00 00 00 
13:51:31:7330 Rx 1 0x2001 x 8 00 00 00 00 08 00 00 00 
13:51:31:7330 Rx 1 0x2001 x 8 00 00 00 00 08 00 00 00 
13:51:31:7330 Rx 1 0x2001 x 8 00 00 00 00 08 00 00 00 
13:51:31:7430 Rx 1 0x2001 x 8 00 00 00 00 08 00 00 00 
13:51:31:7470 Rx 1 0x2001 x 8 00 00 00 00 08 00 00 00 
13:51:31:7470 Rx 1 0x2001 x 8 00 00 00 00 08 00 00 00 
13:51:31:7470 Rx 1 0x2001 x 8 00 00 00 00 08 00 00 00 
13:51:31:7470 Rx 1 0x2001 x 8 00 00 00 00 08 00 00 00 
13:51:31:7480 Rx 1 0x2001 x 8 00 00 00 00 08 00 00 00 
13:51:31:7530 Rx 1 0x2001 x 8 00 00 00 00 08 00 00 00 
13:51:31:7530 Rx 1 0x2001 x 8 00 00 00 00 08 00 00 00 
13:51:31:7530 Rx 1 0x2001 x 8 00 00 00 00 08 00 00 00 
13:51:31:7670 Rx 1 0x2001 x 8 00 00 00 00 08 00 00 00 
13:51:31:7680 Rx 1 0x2001 x 8 00 00 00 00 08 00 00 00 
13:51:31:7730 Rx 1 0x391 s 8 00 00 80 00 08 00 00 00 
13:51:31:7880 Rx 1 0x2001 x 8 00 00 00 00 08 00 00 00 
13:51:31:7920 Rx 1 0x2001 x 8 00 00 00 00 08 00 00 00 
13:51:31:7930 Rx 1 0x2001 x 8 00 00 00 00 08 00 00 00 
13:51:31:7930 Rx 1 0x2001 x 8 00 00 00 00 08 00 00 00 
13:51:31:7930 Rx 1 0x2001 x 8 00 00 00 00 08 00 00 00 
13:51:31:7930 Rx 1 0x2001 x 8 00 00 00 00 08 00 00 00 
13:51:31:7930 Rx 1 0x2001 x 8 00 00 00 00 08 00 00 00 
13:51:31:7930 Rx 1 0x2001 x 8 00 00 00 00 08 00 00 00 
13:51:31:8080 Rx 1 0x2001 x 8 00 00 00 00 08 00 00 00 
13:51:31:8130 Rx 1 0x2001 x 8 00 00 00 00 08 00 00 00 
13:51:31:8280 Rx 1 0x2001 x 8 00 00 00 00 08 00 00 00 
13:51:31:8280 Rx 1 0x2001 x 8 00 00 00 00 08 00 00 00 
13:51:31:8280 Rx 1 0x2001 x 8 00 00 00 00 08 00 00 00 
13:51:31:8280 Rx 1 0x2001 x 8 00 00 00 00 08 00 00 00 
13:51:31:8280 Rx 1 0x2001 x 8 00 00 00 00 08 00 00 00 
13:51:31:8330 Rx 1 0x2001 x 8 00 00 00 00 08 00 00 00 
13:51:31:8400 Rx 1 0x2001 x 8 00 00 00 00 08 00 00 00 
13:51:31:8480 Rx 1 0x2001 x 8 00 00 00 00 08 00 00 00 
13:51:31:8480 Rx 1 0x287 s 8 03 00 00 00 00 00 04 F8 
13:51:31:8480 Rx 1 0x580 s 8 00 00 07 80 00 00 00 01 
13:51:31:8530 Rx 1 0x391 s 8 00 00 80 00 08 00 00 00 
13:51:31:8530 Rx 1 0x500 s 8 00 00 01 FE 00 64 00 00 
13:51:31:8680 Rx 1 0x2001 x 8 00 00 00 00 00 64 00 00 
13:51:31:8680 Rx 1 0x2001 x 8 00 00 00 00 00 64 00 00 
13:51:31:8730 Rx 1 0x2001 x 8 00 00 00 00 00 64 00 00 
13:51:31:8880 Rx 1 0x2001 x 8 00 00 00 00 00 64 00 00 
13:51:31:8880 Rx 1 0x2001 x 8 00 00 00 00 00 64 00 00 
13:51:31:8880 Rx 1 0x480 s 8 00 00 00 40 7A 00 0B 3A 
13:51:31:8920 Rx 1 0x2001 x 8 00 00 00 00 7A 00 0B 3A 
13:51:31:8920 Rx 1 0x2001 x 8 00 00 00 00 7A 00 0B 3A 
13:51:31:8930 Rx 1 0x2001 x 8 00 00 00 00 7A 00 0B 3A 
13:51:31:8930 Rx 1 0x2001 x 8 00 00 00 00 7A 00 0B 3A 
13:51:31:9080 Rx 1 0x2001 x 8 00 00 00 00 7A 00 0B 3A 
13:51:31:9080 Rx 1 0x2001 x 8 00 00 00 00 7A 00 0B 3A 
13:51:31:9130 Rx 1 0x2001 x 8 00 00 00 00 7A 00 0B 3A 
13:51:31:9220 Rx 1 0x2001 x 8 00 00 00 00 7A 00 0B 3A 
13:51:31:9230 Rx 1 0x2001 x 8 00 00 00 00 7A 00 0B 3A 
13:51:31:9230 Rx 1 0x2001 x 8 00 00 00 00 7A 00 0B 3A 
13:51:31:9280 Rx 1 0x2001 x 8 00 00 00 00 7A 00 0B 3A 
13:51:31:9330 Rx 1 0x391 s 8 00 00 80 00 08 00 00 00 
13:51:31:9360 Rx 1 0x2001 x 8 00 00 00 00 08 00 00 00 
13:51:31:9370 Rx 1 0x2001 x 8 00 00 00 00 08 00 00 00 
13:51:31:9370 Rx 1 0x480 s 8 00 00 00 40 7A 00 0C 39 
13:51:31:9480 Rx 1 0x2001 x 8 00 00 00 00 7A 00 0C 39 
13:51:31:9480 Rx 1 0x2001 x 8 00 00 00 00 7A 00 0C 39 
13:51:31:9530 Rx 1 0x391 s 8 00 00 80 00 08 00 00 00 
13:51:31:9530 Rx 1 0x500 s 8 00 00 01 FE 00 64 00 00 
13:51:31:9670 Rx 1 0x2001 x 8 00 00 00 00 00 64 00 00 
13:51:31:9680 Rx 1 0x287 s 8 03 00 00 00 00 00 0A F2 
13:51:31:9730 Rx 1 0x391 s 8 00 00 80 00 08 00 00 00 
13:51:31:9840 Rx 1 0x2001 x 8 00 00 00 00 08 00 00 00 
13:51:31:9850 Rx 1 0x480 s 8 00 00 00 40 7A 00 0D 38 
13:51:31:9870 Rx 1 0x2001 x 8 00 00 00 00 7A 00 0D 38 
13:51:31:9870 Rx 1 0x2001 x 8 00 00 00 00 7A 00 0D 38 
13:51:31:9880 Rx 1 0x2001 x 8 00 00 00 00 7A 00 0D 38 
13:51:31:9880 Rx 1 0x2001 x 8 00 00 00 00 7A 00 0D 38 
13:51:31:9930 Rx 1 0x2001 x 8 00 00 00 00 7A 00 0D 38 
13:51:31:9930 Rx 1 0x2001 x 8 00 00 00 00 7A 00 0D 38 
13:51:32:0080 Rx 1 0x2001 x 8 00 00 00 00 7A 00 0D 38 
13:51:32:0130 Rx 1 0x391 s 8 00 00 80 00 08 00 00 00 
13:51:32:0280 Rx 1 0x2001 x 8 00 00 00 00 08 00 00 00 
13:51:32:0280 Rx 1 0x287 s 8 03 00 00 00 00 00 0D EF 
13:51:32:0280 Rx 1 0x2001 x 8 00 00 00 00 00 00 0D EF 
13:51:32:0330 Rx 1 0x391 s 8 00 00 80 00 08 00 00 00 
13:51:32:0330 Rx 1 0x480 s 8 00 00 00 40 7A 00 0E 37 
13:51:32:0480 Rx 1 0x2001 x 8 00 00 00 00 7A 00 0E 37 
13:51:32:0480 Rx 1 0x2001 x 8 00 00 00 00 7A 00 0E 37 
13:51:32:0480 Rx 1 0x2001 x 8 00 00 00 00 7A 00 0E 37 
13:51:32:0480 Rx 1 0x580 s 8 00 00 07 80 00 00 00 01 
13:51:32:0530 Rx 1 0x391 s 8 00 00 80 00 08 00 00 00 
13:51:32:0530 Rx 1 0x500 s 8 00 00 01 FE 00 64 00 00 
13:51:32:0670 Rx 1 0x2001 x 8 00 00 00 00 00 64 00 00 
13:51:32:0730 Rx 1 0x391 s 8 00 00 80 00 08 00 00 00 
13:51:32:0810 Rx 1 0x2001 x 8 00 00 00 00 08 00 00 00 
13:51:32:0810 Rx 1 0x2001 x 8 00 00 00 00 08 00 00 00 
13:51:32:0810 Rx 1 0x480 s 8 00 00 00 40 7A 00 0F 36 
13:51:32:0870 Rx 1 0x2001 x 8 00 00 00 00 7A 00 0F 36 
13:51:32:0880 Rx 1 0x2001 x 8 00 00 00 00 7A 00 0F 36 
13:51:32:0930 Rx 1 0x391 s 8 00 00 80 00 08 00 00 00 
13:51:32:1080 Rx 1 0x2001 x 8 00 00 00 00 08 00 00 00 
13:51:32:1080 Rx 1 0x287 s 8 03 00 00 00 00 00 01 FB 
13:51:32:1130 Rx 1 0x2001 x 8 00 00 00 00 00 00 01 FB 
13:51:32:1270 Rx 1 0x2001 x 8 00 00 00 00 00 00 01 FB 
13:51:32:1290 Rx 1 0x2001 x 8 00 00 00 00 00 00 01 FB 
13:51:32:1330 Rx 1 0x2001 x 8 00 00 00 00 00 00 01 FB 
13:51:32:1330 Rx 1 0x2001 x 8 00 00 00 00 00 00 01 FB 
13:51:32:1330 Rx 1 0x2001 x 8 00 00 00 00 00 00 01 FB 
13:51:32:1330 Rx 1 0x2001 x 8 00 00 00 00 00 00 01 FB 
13:51:32:1330 Rx 1 0x535 s 8 00 00 90 00 00 00 00 C7 
13:51:32:1480 Rx 1 0x2001 x 8 00 00 00 00 00 00 00 C7 
13:51:32:1480 Rx 1 0x287 s 8 03 00 00 00 00 00 03 F9 
13:51:32:1530 Rx 1 0x391 s 8 00 00 80 00 08 00 00 00 
13:51:32:1530 Rx 1 0x500 s 8 00 00 01 FE 00 64 00 00 
13:51:32:1730 Rx 1 0x2001 x 8 00 00 00 00 00 64 00 00 
13:51:32:1730 Rx 1 0x2001 x 8 00 00 00 00 00 64 00 00 
13:51:32:1770 Rx 1 0x2001 x 8 00 00 00 00 00 64 00 00 
13:51:32:1880 Rx 1 0x2001 x 8 00 00 00 00 00 64 00 00 
13:51:32:1880 Rx 1 0x287 s 8 03 00 00 00 00 00 05 F7 
13:51:32:1930 Rx 1 0x2001 x 8 00 00 00 00 00 00 05 F7 
13:51:32:2080 Rx 1 0x2001 x 8 00 00 00 00 00 00 05 F7 
13:51:32:2080 Rx 1 0x287 s 8 03 00 00 00 00 00 06 F6 
13:51:32:2130 Rx 1 0x391 s 8 00 00 80 00 08 00 00 00 
13:51:32:2250 Rx 1 0x2001 x 8 00 00 00 00 08 00 00 00 
13:51:32:2260 Rx 1 0x480 s 8 00 00 00 40 7A 00 02 43 
13:51:32:2330 Rx 1 0x2001 x 8 00 00 00 00 7A 00 02 43 
13:51:32:2370 Rx 1 0x2001 x 8 00 00 00 00 7A 00 02 43 
13:51:32:2380 Rx 1 0x535 s 8 00 00 A0 00 00 00 00 E8 
13:51:32:2480 Rx 1 0x2001 x 8 00 00 00 00 00 00 00 E8 
13:51:32:2480 Rx 1 0x287 s 8 03 00 00 00 00 00 08 F4 
13:51:32:2480 Rx 1 0x580 s 8 00 00 07 80 00 00 00 01 
13:51:32:2530 Rx 1 0x391 s 8 00 00 80 00 08 00 00 00 
13:51:32:2530 Rx 1 0x500 s 8 00 00 01 FE 00 64 00 00 
13:51:32:2630 Rx 1 0x2001 x 8 00 00 00 00 00 64 00 00 
13:51:32:2630 Rx 1 0x2001 x 8 00 00 00 00 00 64 00 00 
13:51:32:2630 Rx 1 0x2001 x 8 00 00 00 00 00 64 00 00 
13:51:32:2630 Rx 1 0x2001 x 8 00 00 00 00 00 64 00 00 
13:51:32:2630 Rx 1 0x2001 x 8 00 00 00 00 00 64 00 00 
13:51:32:2630 Rx 1 0x2001 x 8 00 00 00 00 00 64 00 00 
13:51:32:2690 Rx 1 0x2001 x 8 00 00 00 00 00 64 00 00 
13:51:32:2730 Rx 1 0x2001 x 8 00 00 00 00 00 64 00 00 
13:51:32:2730 Rx 1 0x287 s 8 03 00 00 00 00 00 09 F3 
13:51:32:2730 Rx 1 0x2001 x 8 00 00 00 00 00 00 09 F3 
13:51:32:2740 Rx 1 0x480 s 8 00 00 00 40 7A 00 03 42 
13:51:32:2920 Rx 1 0x2001 x 8 00 00 00 00 7A 00 03 42 
13:51:32:2930 Rx 1 0x2001 x 8 00 00 00 00 7A 00 03 42 
13:51:32:2930 Rx 1 0x2001 x 8 00 00 00 00 7A 00 03 42 
13:51:32:2930 Rx 1 0x2001 x 8 00 00 00 00 7A 00 03 42 
13:51:32:2930 Rx 1 0x2001 x 8 00 00 00 00 7A 00 03 42 
13:51:32:3130 Rx 1 0x2001 x 8 00 00 00 00 7A 00 03 42 
13:51:32:3130 Rx 1 0x2001 x 8 00 00 00 00 7A 00 03 42 
13:51:32:3130 Rx 1 0x2001 x 8 00 00 00 00 7A 00 03 42 
13:51:32:3130 Rx 1 0x2001 x 8 00 00 00 00 7A 00 03 42 
13:51:32:3130 Rx 1 0x2001 x 8 00 00 00 00 7A 00 03 42 
13:51:32:3140 Rx 1 0x2001 x 8 00 00 00 00 7A 00 03 42 
13:51:32:3220 Rx 1 0x2001 x 8 00 00 00 00 7A 00 03 42 
13:51:32:3330 Rx 1 0x2001 x 8 00 00 00 00 7A 00 03 42 
13:51:32:3330 Rx 1 0x2001 x 8 00 00 00 00 7A 00 03 42 
13:51:32:3330 Rx 1 0x2001 x 8 00 00 00 00 7A 00 03 42 
13:51:32:3470 Rx 1 0x2001 x 8 00 00 00 00 7A 00 03 42 
13:51:32:3480 Rx 1 0x2001 x 8 00 00 00 00 7A 00 03 42 
13:51:32:3480 Rx 1 0x2001 x 8 00 00 00 00 7A 00 03 42 
13:51:32:3530 Rx 1 0x391 s 8 00 00 80 00 08 00 00 00 
13:51:32:3530 Rx 1 0x287 s 8 03 00 00 00 00 00 0D EF 
13:51:32:3530 Rx 1 0x500 s 8 00 00 01 FE 00 64 00 00 
13:51:32:3700 Rx 1 0x2001 x 8 00 00 00 00 00 64 00 00 
13:51:32:3700 Rx 1 0x2001 x 8 00 00 00 00 00 64 00 00 
13:51:32:3710 Rx 1 0x480 s 8 00 00 00 40 7A 00 05 40 
13:51:32:3720 Rx 1 0x2001 x 8 00 00 00 00 7A 00 05 40 
13:51:32:3730 Rx 1 0x2001 x 8 00 00 00 00 7A 00 05 40 
13:51:32:3730 Rx 1 0x2001 x 8 00 00 00 00 7A 00 05 40 
13:51:32:3730 Rx 1 0x2001 x 8 00 00 00 00 7A 00 05 40 
13:51:32:3730 Rx 1 0x2001 x 8 00 00 00 00 7A 00 05 40 
13:51:32:3930 Rx 1 0x2001 x 8 00 00 00 00 7A 00 05 40 
13:51:32:3930 Rx 1 0x2001 x 8 00 00 00 00 7A 00 05 40 
13:51:32:3930 Rx 1 0x2001 x 8 00 00 00 00 7A 00 05 40 
13:51:32:4130 Rx 1 0x2001 x 8 00 00 00 00 7A 00 05 40 
13:51:32:4130 Rx 1 0x287 s 8 03 00 00 00 00 00 00 FC 
13:51:32:4130 Rx 1 0x391 s 8 00 00 80 00 08 00 00 00 
13:51:32:4180 Rx 1 0x2001 x 8 00 00 00 00 08 00 00 00 
13:51:32:4180 Rx 1 0x480 s 8 00 00 00 40 7A 00 06 3F 
13:51:32:4330 Rx 1 0x2001 x 8 00 00 00 00 7A 00 06 3F 
13:51:32:4330 Rx 1 0x287 s 8 03 00 00 00 00 00 01 FB 
13:51:32:4330 Rx 1 0x391 s 8 00 00 80 00 08 00 00 00 
13:51:32:4470 Rx 1 0x2001 x 8 00 00 00 00 08 00 00 00 
13:51:32:4470 Rx 1 0x2001 x 8 00 00 00 00 08 00 00 00 
13:51:32:4470 Rx 1 0x2001 x 8 00 00 00 00 08 00 00 00 
13:51:32:4470 Rx 1 0x2001 x 8 00 00 00 00 08 00 00 00 
13:51:32:4530 Rx 1 0x2001 x 8 00 00 00 00 08 00 00 00 
13:51:32:4530 Rx 1 0x2001 x 8 00 00 00 00 08 00 00 00 
13:51:32:4530 Rx 1 0x2001 x 8 00 00 00 00 08 00 00 00 
13:51:32:4530 Rx 1 0x535 s 8 00 00 C0 00 00 00 00 B6 
13:51:32:4660 Rx 1 0x2001 x 8 00 00 00 00 00 00 00 B6 
13:51:32:4670 Rx 1 0x2001 x 8 00 00 00 00 00 00 00 B6 
13:51:32:4670 Rx 1 0x480 s 8 00 00 00 40 7A 00 07 3E 
13:51:32:4730 Rx 1 0x2001 x 8 00 00 00 00 7A 00 07 3E 
13:51:32:4730 Rx 1 0x287 s 8 03 00 00 00 00 00 03 F9 
13:51:32:4730 Rx 1 0x391 s 8 00 00 80 00 08 00 00 00 
13:51:32:4930 Rx 1 0x2001 x 8 00 00 00 00 08 00 00 00 
13:51:32:5140 Rx 1 0x2001 x 8 00 00 00 00 08 00 00 00 
13:51:32:5630 Rx 1 0x2001 x 8 00 00 00 00 08 00 00 00 
13:51:32:6110 Rx 1 0x2001 x 8 00 00 00 00 08 00 00 00 
13:51:32:6590 Rx 1 0x2001 x 8 00 00 00 00 08 00 00 00 
13:51:32:7070 Rx 1 0x2001 x 8 00 00 00 00 08 00 00 00 
13:51:32:7550 Rx 1 0x2001 x 8 00 00 00 00 08 00 00 00 
13:51:32:8040 Rx 1 0x2001 x 8 00 00 00 00 08 00 00 00 
13:51:32:8520 Rx 1 0x2001 x 8 00 00 00 00 08 00 00 00 
13:51:32:9000 Rx 1 0x2001 x 8 00 00 00 00 08 00 00 00 
13:51:32:9480 Rx 1 0x2001 x 8 00 00 00 00 08 00 00 00 
13:51:32:9960 Rx 1 0x2001 x 8 00 00 00 00 08 00 00 00 
13:51:33:0030 Rx 1 0x2001 x 8 00 00 00 00 08 00 00 00 
13:51:33:0030 Rx 1 0x2001 x 8 00 00 00 00 08 00 00 00 
13:51:33:0030 Rx 1 0x2001 x 8 00 00 00 00 08 00 00 00 
13:51:33:0030 Rx 1 0x2001 x 8 00 00 00 00 08 00 00 00 
13:51:33:0030 Rx 1 0x2001 x 8 00 00 00 00 08 00 00 00 
13:51:33:0030 Rx 1 0x2001 x 8 00 00 00 00 08 00 00 00 
13:51:33:0130 Rx 1 0x2001 x 8 00 00 00 00 08 00 00 00 
13:51:33:0130 Rx 1 0x2001 x 8 00 00 00 00 08 00 00 00 
13:51:33:0200 Rx 1 0x2001 x 8 00 00 00 00 08 00 00 00 
13:51:33:0220 Rx 1 0x2001 x 8 00 00 00 00 08 00 00 00 
13:51:33:0220 Rx 1 0x2001 x 8 00 00 00 00 08 00 00 00 
13:51:33:0220 Rx 1 0x2001 x 8 00 00 00 00 08 00 00 00 
13:51:33:0330 Rx 1 0x2001 x 8 00 00 00 00 08 00 00 00 
13:51:33:0330 Rx 1 0x2001 x 8 00 00 00 00 08 00 00 00 
13:51:33:0420 Rx 1 0x2001 x 8 00 00 00 00 08 00 00 00 
13:51:33:0420 Rx 1 0x2001 x 8 00 00 00 00 08 00 00 00 
13:51:33:0420 Rx 1 0x2001 x 8 00 00 00 00 08 00 00 00 
13:51:33:0450 Rx 1 0x2001 x 8 00 00 00 00 08 00 00 00 
13:51:33:0530 Rx 1 0x2001 x 8 00 00 00 00 08 00 00 00 
13:51:33:0620 Rx 1 0x2001 x 8 00 00 00 00 08 00 00 00 
13:51:33:0620 Rx 1 0x2001 x 8 00 00 00 00 08 00 00 00 
13:51:33:0630 Rx 1 0x2001 x 8 00 00 00 00 08 00 00 00 
13:51:33:0730 Rx 1 0x2001 x 8 00 00 00 00 08 00 00 00 
13:51:33:0730 Rx 1 0x2001 x 8 00 00 00 00 08 00 00 00 
13:51:33:0820 Rx 1 0x2001 x 8 00 00 00 00 08 00 00 00 
13:51:33:0830 Rx 1 0x2001 x 8 00 00 00 00 08 00 00 00 
13:51:33:0830 Rx 1 0x2001 x 8 00 00 00 00 08 00 00 00 
13:51:33:0830 Rx 1 0x2001 x 8 00 00 00 00 08 00 00 00 
13:51:33:0930 Rx 1 0x2001 x 8 00 00 00 00 08 00 00 00 
13:51:33:0930 Rx 1 0x2001 x 8 00 00 00 00 08 00 00 00 
13:51:33:0930 Rx 1 0x2001 x 8 00 00 00 00 08 00 00 00 
13:51:33:0970 Rx 1 0x2001 x 8 00 00 00 00 08 00 00 00 
13:51:33:0970 Rx 1 0x2001 x 8 00 00 00 00 08 00 00 00 
13:51:33:0970 Rx 1 0x2001 x 8 00 00 00 00 08 00 00 00 
13:51:33:1020 Rx 1 0x2001 x 8 00 00 00 00 08 00 00 00 
13:51:33:1020 Rx 1 0x2001 x 8 00 00 00 00 08 00 00 00 
13:51:33:1020 Rx 1 0x2001 x 8 00 00 00 00 08 00 00 00 
13:51:33:1030 Rx 1 0x2001 x 8 00 00 00 00 08 00 00 00 
13:51:33:1030 Rx 1 0x2001 x 8 00 00 00 00 08 00 00 00 
13:51:33:1030 Rx 1 0x2001 x 8 00 00 00 00 08 00 00 00 
13:51:33:1030 Rx 1 0x2001 x 8 00 00 00 00 08 00 00 00 
13:51:33:1130 Rx 1 0x2001 x 8 00 00 00 00 08 00 00 00 
13:51:33:1130 Rx 1 0x2001 x 8 00 00 00 00 08 00 00 00 
13:51:33:1220 Rx 1 0x2001 x 8 00 00 00 00 08 00 00 00 
13:51:33:1220 Rx 1 0x2001 x 8 00 00 00 00 08 00 00 00 
13:51:33:1230 Rx 1 0x2001 x 8 00 00 00 00 08 00 00 00 
13:51:33:1330 Rx 1 0x2001 x 8 00 00 00 00 08 00 00 00 
13:51:33:1330 Rx 1 0x2001 x 8 00 00 00 00 08 00 00 00 
13:51:33:1410 Rx 1 0x2001 x 8 00 00 00 00 08 00 00 00 
13:51:33:1420 Rx 1 0x2001 x 8 00 00 00 00 08 00 00 00 
13:51:33:1430 Rx 1 0x2001 x 8 00 00 00 00 08 00 00 00 
13:51:33:1430 Rx 1 0x2001 x 8 00 00 00 00 08 00 00 00 
13:51:33:1430 Rx 1 0x2001 x 8 00 00 00 00 08 00 00 00 
13:51:33:1520 Rx 1 0x2001 x 8 00 00 00 00 08 00 00 00 
13:51:33:1520 Rx 1 0x2001 x 8 00 00 00 00 08 00 00 00 
13:51:33:1620 Rx 1 0x2001 x 8 00 00 00 00 08 00 00 00 
13:51:33:1620 Rx 1 0x2001 x 8 00 00 00 00 08 00 00 00 
13:51:33:1620 Rx 1 0x2001 x 8 00 00 00 00 08 00 00 00 
13:51:33:1730 Rx 1 0x2001 x 8 00 00 00 00 08 00 00 00 
13:51:33:1730 Rx 1 0x2001 x 8 00 00 00 00 08 00 00 00 
13:51:33:1820 Rx 1 0x2001 x 8 00 00 00 00 08 00 00 00 
13:51:33:1820 Rx 1 0x2001 x 8 00 00 00 00 08 00 00 00 
13:51:33:1830 Rx 1 0x2001 x 8 00 00 00 00 08 00 00 00 
13:51:33:1870 Rx 1 0x2001 x 8 00 00 00 00 08 00 00 00 
13:51:33:1890 Rx 1 0x2001 x 8 00 00 00 00 08 00 00 00 
13:51:33:1920 Rx 1 0x2001 x 8 00 00 00 00 08 00 00 00 
13:51:33:1920 Rx 1 0x2001 x 8 00 00 00 00 08 00 00 00 
13:51:33:1930 Rx 1 0x2001 x 8 00 00 00 00 08 00 00 00 
13:51:33:1930 Rx 1 0x2001 x 8 00 00 00 00 08 00 00 00 
13:51:33:1970 Rx 1 0x2001 x 8 00 00 00 00 08 00 00 00 
13:51:33:1970 Rx 1 0x2001 x 8 00 00 00 00 08 00 00 00 
13:51:33:1970 Rx 1 0x2001 x 8 00 00 00 00 08 00 00 00 
13:51:33:2020 Rx 1 0x2001 x 8 00 00 00 00 08 00 00 00 
13:51:33:2030 Rx 1 0x2001 x 8 00 00 00 00 08 00 00 00 
13:51:33:2030 Rx 1 0x2001 x 8 00 00 00 00 08 00 00 00 
13:51:33:2030 Rx 1 0x2001 x 8 00 00 00 00 08 00 00 00 
13:51:33:2030 Rx 1 0x2001 x 8 00 00 00 00 08 00 00 00 
13:51:33:2030 Rx 1 0x2001 x 8 00 00 00 00 08 00 00 00 
13:51:33:2030 Rx 1 0x2001 x 8 00 00 00 00 08 00 00 00 
13:51:33:2030 Rx 1 0x2001 x 8 00 00 00 00 08 00 00 00 
13:51:33:2130 Rx 1 0x2001 x 8 00 00 00 00 08 00 00 00 
13:51:33:2130 Rx 1 0x2001 x 8 00 00 00 00 08 00 00 00 
13:51:33:2220 Rx 1 0x2001 x 8 00 00 00 00 08 00 00 00 
13:51:33:2220 Rx 1 0x2001 x 8 00 00 00 00 08 00 00 00 
13:51:33:2230 Rx 1 0x2001 x 8 00 00 00 00 08 00 00 00 
13:51:33:2330 Rx 1 0x2001 x 8 00 00 00 00 08 00 00 00 
13:51:33:2330 Rx 1 0x2001 x 8 00 00 00 00 08 00 00 00 
13:51:33:2370 Rx 1 0x2001 x 8 00 00 00 00 08 00 00 00 
13:51:33:2370 Rx 1 0x2001 x 8 00 00 00 00 08 00 00 00 
13:51:33:2420 Rx 1 0x2001 x 8 00 00 00 00 08 00 00 00 
13:51:33:2430 Rx 1 0x2001 x 8 00 00 00 00 08 00 00 00 
13:51:33:2430 Rx 1 0x2001 x 8 00 00 00 00 08 00 00 00 
13:51:33:2430 Rx 1 0x2001 x 8 00 00 00 00 08 00 00 00 
13:51:33:2530 Rx 1 0x2001 x 8 00 00 00 00 08 00 00 00 
13:51:33:2620 Rx 1 0x2001 x 8 00 00 00 00 08 00 00 00 
13:51:33:2620 Rx 1 0x2001 x 8 00 00 00 00 08 00 00 00 
13:51:33:2630 Rx 1 0x2001 x 8 00 00 00 00 08 00 00 00 
13:51:33:2730 Rx 1 0x2001 x 8 00 00 00 00 08 00 00 00 
13:51:33:2820 Rx 1 0x2001 x 8 00 00 00 00 08 00 00 00 
13:51:33:2820 Rx 1 0x2001 x 8 00 00 00 00 08 00 00 00 
13:51:33:2820 Rx 1 0x2001 x 8 00 00 00 00 08 00 00 00 
13:51:33:2860 Rx 1 0x2001 x 8 00 00 00 00 08 00 00 00 
13:51:33:2860 Rx 1 0x2001 x 8 00 00 00 00 08 00 00 00 
13:51:33:2920 Rx 1 0x2001 x 8 00 00 00 00 08 00 00 00 
13:51:33:2930 Rx 1 0x2001 x 8 00 00 00 00 08 00 00 00 
13:51:33:2930 Rx 1 0x2001 x 8 00 00 00 00 08 00 00 00 
13:51:33:2930 Rx 1 0x2001 x 8 00 00 00 00 08 00 00 00 
13:51:33:2930 Rx 1 0x2001 x 8 00 00 00 00 08 00 00 00 
13:51:33:2930 Rx 1 0x2001 x 8 00 00 00 00 08 00 00 00 
13:51:33:2970 Rx 1 0x2001 x 8 00 00 00 00 08 00 00 00 
